#  HZ   S   RI   R     50.00 
! Rohde & Schwarz Vector Network Analyzer 
! Rohde-Schwarz,ZND-2Port,1328517092101111,3.20
! Created: UTC 1/8/2024, 12:07:59 PM
! freq[Hz]                re:S11                  im:S11
 1.000000000000000E9     1.775658360856533E-1    9.592848285467631E-1
 1.000200000000000E9     1.783407761631640E-1    9.591031137581758E-1
 1.000400000000000E9     1.790584973209030E-1    9.590563233271933E-1
 1.000600000000000E9     1.799764069737310E-1    9.590836806412411E-1
 1.000800000000000E9     1.808035391136681E-1    9.587654803030790E-1
 1.001000000000000E9     1.816104196411647E-1    9.585740107995696E-1
 1.001200000000000E9     1.820980985409826E-1    9.584718166945309E-1
 1.001400000000000E9     1.830738013495136E-1    9.584088328024000E-1
 1.001600000000000E9     1.836954044236195E-1    9.582284366350998E-1
 1.001800000000000E9     1.844729904400626E-1    9.583333089988098E-1
 1.002000000000000E9     1.851093363019653E-1    9.579882817328239E-1
 1.002200000000000E9     1.860597874831685E-1    9.578629318111941E-1
 1.002400000000000E9     1.867288314325037E-1    9.577358059648070E-1
 1.002600000000000E9     1.873249968785755E-1    9.574192389964912E-1
 1.002800000000000E9     1.883317362579338E-1    9.572525348727196E-1
 1.003000000000000E9     1.891155426862568E-1    9.571492424413377E-1
 1.003200000000000E9     1.898430291445588E-1    9.569323208400067E-1
 1.003400000000000E9     1.904356061844321E-1    9.566608733313933E-1
 1.003600000000000E9     1.911257170988202E-1    9.566200804439062E-1
 1.003800000000000E9     1.918139306022715E-1    9.564652604825055E-1
 1.004000000000000E9     1.928279188754702E-1    9.563206485695631E-1
 1.004200000000000E9     1.935292351603000E-1    9.562377488846645E-1
 1.004400000000000E9     1.942391632495921E-1    9.559090750144000E-1
 1.004600000000000E9     1.953258849252555E-1    9.559086137468544E-1
 1.004800000000000E9     1.954565424811011E-1    9.553173138207882E-1
 1.005000000000000E9     1.962720076891240E-1    9.552587693223328E-1
 1.005200000000000E9     1.972285752131367E-1    9.549828596293832E-1
 1.005400000000000E9     1.976976204417649E-1    9.548083562047402E-1
 1.005600000000000E9     1.984162297723569E-1    9.547138586157049E-1
 1.005800000000000E9     1.994971795806312E-1    9.545435243547761E-1
 1.006000000000000E9     2.003053521326582E-1    9.543754033828731E-1
 1.006200000000000E9     2.010843516632491E-1    9.544992286501178E-1
 1.006400000000000E9     2.017348963747251E-1    9.541838095328146E-1
 1.006600000000000E9     2.025734018006623E-1    9.541232931115617E-1
 1.006800000000000E9     2.032202528195174E-1    9.537487967410062E-1
 1.007000000000000E9     2.040627244311481E-1    9.536468932323900E-1
 1.007200000000000E9     2.048713876343825E-1    9.534405995411784E-1
 1.007400000000000E9     2.055376280242977E-1    9.535736826701445E-1
 1.007600000000000E9     2.063149248613347E-1    9.533298092516757E-1
 1.007800000000000E9     2.069659987280416E-1    9.531877860961484E-1
 1.008000000000000E9     2.078310879941387E-1    9.529904548635846E-1
 1.008200000000000E9     2.087889357716291E-1    9.526886221617707E-1
 1.008400000000000E9     2.095522753552930E-1    9.525891199444609E-1
 1.008600000000000E9     2.100780010384939E-1    9.524720748574189E-1
 1.008800000000000E9     2.110980040168410E-1    9.523210025328258E-1
 1.009000000000000E9     2.118140310669540E-1    9.518268465706166E-1
 1.009200000000000E9     2.124167595443044E-1    9.519511082122345E-1
 1.009400000000000E9     2.133450689917546E-1    9.518511949765538E-1
 1.009600000000000E9     2.141770283780360E-1    9.517786932846735E-1
 1.009800000000000E9     2.149021483959212E-1    9.516689823279433E-1
 1.010000000000000E9     2.157583791031925E-1    9.514600013022024E-1
 1.010200000000000E9     2.164344131037650E-1    9.512890394831464E-1
 1.010400000000000E9     2.173211982845389E-1    9.511218697637549E-1
 1.010600000000000E9     2.180980090760493E-1    9.508543405188213E-1
 1.010800000000000E9     2.186668215880695E-1    9.506026575352209E-1
 1.011000000000000E9     2.195316741718395E-1    9.510012672778290E-1
 1.011200000000000E9     2.203383816316877E-1    9.506318747707011E-1
 1.011400000000000E9     2.211078740926797E-1    9.503073139398862E-1
 1.011600000000000E9     2.217014558636503E-1    9.499464490028382E-1
 1.011800000000000E9     2.227429343982646E-1    9.499326438579898E-1
 1.012000000000000E9     2.235134863886039E-1    9.496985381410293E-1
 1.012200000000000E9     2.239728042955745E-1    9.495284411762462E-1
 1.012400000000000E9     2.250527939485482E-1    9.496008649862385E-1
 1.012600000000000E9     2.257740019229626E-1    9.493930249306094E-1
 1.012800000000000E9     2.265657731051670E-1    9.491899515185591E-1
 1.013000000000000E9     2.272882526297747E-1    9.490356491936531E-1
 1.013200000000000E9     2.281063778901296E-1    9.488399435929670E-1
 1.013400000000000E9     2.289093070763719E-1    9.484789955206636E-1
 1.013600000000000E9     2.298703298324611E-1    9.486834433986755E-1
 1.013800000000000E9     2.306419383302523E-1    9.485373667701413E-1
 1.014000000000000E9     2.313079720149344E-1    9.482986946444882E-1
 1.014200000000000E9     2.319545159344965E-1    9.479938450224843E-1
 1.014400000000000E9     2.327285931736239E-1    9.480919000605941E-1
 1.014600000000000E9     2.335573962948274E-1    9.478426952520708E-1
 1.014800000000000E9     2.342306159149400E-1    9.476058898690880E-1
 1.015000000000000E9     2.352368537475789E-1    9.473789552751626E-1
 1.015200000000000E9     2.359741640041478E-1    9.473621017183894E-1
 1.015400000000000E9     2.368106781060534E-1    9.473540199100073E-1
 1.015600000000000E9     2.375235836923019E-1    9.472219718096058E-1
 1.015800000000000E9     2.383956403655340E-1    9.468507912172308E-1
 1.016000000000000E9     2.390824940506447E-1    9.465155133472523E-1
 1.016200000000000E9     2.398087296850643E-1    9.462876158106828E-1
 1.016400000000000E9     2.405873319406225E-1    9.462671378229597E-1
 1.016600000000000E9     2.413713753071646E-1    9.459476558980298E-1
 1.016800000000000E9     2.425126519798648E-1    9.458771442686733E-1
 1.017000000000000E9     2.430181837162993E-1    9.460068874008207E-1
 1.017200000000000E9     2.438952390567163E-1    9.456397375366113E-1
 1.017400000000000E9     2.445265110429616E-1    9.455264305443289E-1
 1.017600000000000E9     2.454806989993646E-1    9.451591251365270E-1
 1.017800000000000E9     2.459416331695353E-1    9.451358364852971E-1
 1.018000000000000E9     2.467853645076262E-1    9.449150939433293E-1
 1.018200000000000E9     2.476580321985948E-1    9.447526365958507E-1
 1.018400000000000E9     2.483384833727979E-1    9.446476059313368E-1
 1.018600000000000E9     2.493137205628865E-1    9.443934387355750E-1
 1.018800000000000E9     2.497539705385345E-1    9.441261085592115E-1
 1.019000000000000E9     2.506129382739893E-1    9.440813663442910E-1
 1.019200000000000E9     2.514522582463483E-1    9.440532681767521E-1
 1.019400000000000E9     2.522572249643127E-1    9.436023820385312E-1
 1.019600000000000E9     2.529945173547407E-1    9.436460106197448E-1
 1.019800000000000E9     2.539316128962014E-1    9.434318317312744E-1
 1.020000000000000E9     2.546600432971898E-1    9.430452337285808E-1
 1.020200000000000E9     2.553224504637582E-1    9.427526539405834E-1
 1.020400000000000E9     2.561057221360633E-1    9.430154608494066E-1
 1.020600000000000E9     2.566959527676470E-1    9.426309491865403E-1
 1.020800000000000E9     2.573895697467815E-1    9.422222512618803E-1
 1.021000000000000E9     2.582849183727890E-1    9.421913970467852E-1
 1.021200000000000E9     2.591630820440975E-1    9.419817915229257E-1
 1.021400000000000E9     2.599482714344730E-1    9.421090084107057E-1
 1.021600000000000E9     2.608736061935169E-1    9.417168839289535E-1
 1.021800000000000E9     2.613394542907988E-1    9.416591264036828E-1
 1.022000000000000E9     2.622049724081732E-1    9.412858086257871E-1
 1.022200000000000E9     2.628160818283599E-1    9.411435676778059E-1
 1.022400000000000E9     2.638231514259747E-1    9.408480738438321E-1
 1.022600000000000E9     2.645657789928433E-1    9.410292646785779E-1
 1.022800000000000E9     2.650177457562030E-1    9.407977245568513E-1
 1.023000000000000E9     2.660182457635556E-1    9.405657064935010E-1
 1.023200000000000E9     2.667405437280069E-1    9.403682387917580E-1
 1.023400000000000E9     2.675220579710147E-1    9.401226995765586E-1
 1.023600000000000E9     2.683081599365117E-1    9.398228802085692E-1
 1.023800000000000E9     2.689900697276618E-1    9.398380126311655E-1
 1.024000000000000E9     2.697351570208891E-1    9.396443517928758E-1
 1.024200000000000E9     2.702224412183841E-1    9.391183119157769E-1
 1.024400000000000E9     2.713790381441905E-1    9.391079433131549E-1
 1.024600000000000E9     2.722947164456059E-1    9.390849167156290E-1
 1.024800000000000E9     2.726528665259670E-1    9.385151643390138E-1
 1.025000000000000E9     2.734371305165212E-1    9.386503780487018E-1
 1.025200000000000E9     2.742139098718918E-1    9.383541050852963E-1
 1.025400000000000E9     2.750936429762091E-1    9.378384569694951E-1
 1.025600000000000E9     2.757901377032491E-1    9.376568963746206E-1
 1.025800000000000E9     2.762864419834056E-1    9.379352829835561E-1
 1.026000000000000E9     2.773667475345117E-1    9.374908408757487E-1
 1.026200000000000E9     2.780732028945472E-1    9.373636556921592E-1
 1.026400000000000E9     2.789161406403716E-1    9.370087177138263E-1
 1.026600000000000E9     2.797606233418679E-1    9.368295162426368E-1
 1.026800000000000E9     2.803167024409522E-1    9.367737220462368E-1
 1.027000000000000E9     2.808382835422167E-1    9.365682070325732E-1
 1.027200000000000E9     2.820668892449482E-1    9.361166815749985E-1
 1.027400000000000E9     2.825624061574631E-1    9.360022982950998E-1
 1.027600000000000E9     2.834539941818109E-1    9.355060625126896E-1
 1.027800000000000E9     2.840479716867282E-1    9.358072694729103E-1
 1.028000000000000E9     2.850347963976135E-1    9.355193685617416E-1
 1.028200000000000E9     2.853384140599085E-1    9.352067481288387E-1
 1.028400000000000E9     2.862107787313294E-1    9.350128419031228E-1
 1.028600000000000E9     2.868535747525530E-1    9.346568794820449E-1
 1.028800000000000E9     2.878095840355506E-1    9.348617577826408E-1
 1.029000000000000E9     2.883467271405104E-1    9.340778429361348E-1
 1.029200000000000E9     2.893361906914757E-1    9.338138914168514E-1
 1.029400000000000E9     2.896895708755304E-1    9.338131460956430E-1
 1.029600000000000E9     2.905232858195647E-1    9.336383411228917E-1
 1.029800000000000E9     2.914447314833787E-1    9.334193156655052E-1
 1.030000000000000E9     2.919401387279801E-1    9.332309587025058E-1
 1.030200000000000E9     2.929115042546700E-1    9.328870587861489E-1
 1.030400000000000E9     2.931478645846372E-1    9.326149390375297E-1
 1.030600000000000E9     2.943469897971156E-1    9.323308354861801E-1
 1.030800000000000E9     2.950457104389651E-1    9.322255421003841E-1
 1.031000000000000E9     2.957111532641052E-1    9.318600485256096E-1
 1.031200000000000E9     2.964263514168220E-1    9.316656931642116E-1
 1.031400000000000E9     2.970782894404942E-1    9.317235301786196E-1
 1.031600000000000E9     2.977577117882600E-1    9.312953133668556E-1
 1.031800000000000E9     2.985570383074378E-1    9.311851977239266E-1
 1.032000000000000E9     2.994535831596127E-1    9.309046827490779E-1
 1.032200000000000E9     2.999025520438533E-1    9.305702193342190E-1
 1.032400000000000E9     3.008615212004589E-1    9.303543970962416E-1
 1.032600000000000E9     3.016459315230153E-1    9.300872528034104E-1
 1.032800000000000E9     3.022786879553820E-1    9.298240112968188E-1
 1.033000000000000E9     3.030835167894707E-1    9.296311376631363E-1
 1.033200000000000E9     3.038084977031726E-1    9.294353769530864E-1
 1.033400000000000E9     3.046400449628621E-1    9.291381792515562E-1
 1.033600000000000E9     3.052809341460845E-1    9.289682212706004E-1
 1.033800000000000E9     3.058384682750520E-1    9.288342348367248E-1
 1.034000000000000E9     3.068046947296747E-1    9.282700728944809E-1
 1.034200000000000E9     3.075323196041724E-1    9.283225053149183E-1
 1.034400000000000E9     3.080294918587099E-1    9.281170414033875E-1
 1.034600000000000E9     3.086257443924940E-1    9.276645875999502E-1
 1.034800000000000E9     3.097272558572802E-1    9.275638113770386E-1
 1.035000000000000E9     3.105611774892746E-1    9.274155077491620E-1
 1.035200000000000E9     3.112268136331184E-1    9.271399956056344E-1
 1.035400000000000E9     3.117848767158375E-1    9.266279614442542E-1
 1.035600000000000E9     3.126703311071262E-1    9.264360116802522E-1
 1.035800000000000E9     3.135054506271516E-1    9.262292811484172E-1
 1.036000000000000E9     3.141532956166239E-1    9.259410514746387E-1
 1.036200000000000E9     3.147078218823107E-1    9.258454309158052E-1
 1.036400000000000E9     3.154895355711664E-1    9.254634268951788E-1
 1.036600000000000E9     3.165835355255452E-1    9.253682077482366E-1
 1.036800000000000E9     3.169356548316353E-1    9.247720182211928E-1
 1.037000000000000E9     3.177494714662406E-1    9.247162041982703E-1
 1.037200000000000E9     3.183401302593497E-1    9.245789357561662E-1
 1.037400000000000E9     3.193134825953729E-1    9.242727353236050E-1
 1.037600000000000E9     3.198320102702084E-1    9.237090326383852E-1
 1.037800000000000E9     3.207302756431443E-1    9.237375101563093E-1
 1.038000000000000E9     3.212839745976949E-1    9.234339354298666E-1
 1.038200000000000E9     3.218839281338097E-1    9.230872647066456E-1
 1.038400000000000E9     3.229341962879883E-1    9.230000870949574E-1
 1.038600000000000E9     3.236011123302069E-1    9.226256490555830E-1
 1.038800000000000E9     3.246070194809985E-1    9.221920972073759E-1
 1.039000000000000E9     3.249463291373823E-1    9.220698573370333E-1
 1.039200000000000E9     3.257784808576286E-1    9.215893170598588E-1
 1.039400000000000E9     3.267938108217311E-1    9.213357318748516E-1
 1.039600000000000E9     3.269318889286005E-1    9.212746967543564E-1
 1.039800000000000E9     3.281735571096620E-1    9.208194564632205E-1
 1.040000000000000E9     3.286162735717462E-1    9.205822525659169E-1
 1.040200000000000E9     3.293464466214842E-1    9.202656893470568E-1
 1.040400000000000E9     3.303898955593156E-1    9.199819892204678E-1
 1.040600000000000E9     3.310405068534985E-1    9.198067012555668E-1
 1.040800000000000E9     3.318499870696335E-1    9.195049210468549E-1
 1.041000000000000E9     3.325466185579040E-1    9.191346442544921E-1
 1.041200000000000E9     3.332355361847761E-1    9.190709911447357E-1
 1.041400000000000E9     3.341521739370292E-1    9.184160747412952E-1
 1.041600000000000E9     3.345632064456457E-1    9.183175155795120E-1
 1.041800000000000E9     3.353153437733101E-1    9.180184477684132E-1
 1.042000000000000E9     3.363698003899174E-1    9.180983757990315E-1
 1.042200000000000E9     3.370175972922728E-1    9.174099240161897E-1
 1.042400000000000E9     3.378591233049028E-1    9.171199844751614E-1
 1.042600000000000E9     3.384360349032209E-1    9.167299396144214E-1
 1.042800000000000E9     3.389930906921019E-1    9.164678081227037E-1
 1.043000000000000E9     3.399593691057544E-1    9.162932695803496E-1
 1.043200000000000E9     3.405380844080016E-1    9.160273297162309E-1
 1.043400000000000E9     3.412611097918372E-1    9.155601773395867E-1
 1.043600000000000E9     3.420811182740578E-1    9.152826650417705E-1
 1.043800000000000E9     3.431326131502057E-1    9.150550796158092E-1
 1.044000000000000E9     3.435249568329679E-1    9.148298049138863E-1
 1.044200000000000E9     3.445097374641437E-1    9.145365213363141E-1
 1.044400000000000E9     3.450058236793289E-1    9.140433104033040E-1
 1.044600000000000E9     3.458941396358431E-1    9.138531259173616E-1
 1.044800000000000E9     3.467917850985738E-1    9.132514312837453E-1
 1.045000000000000E9     3.473913093910861E-1    9.131150875189848E-1
 1.045200000000000E9     3.482359126799272E-1    9.129146421665889E-1
 1.045400000000000E9     3.488719543387010E-1    9.127022566405243E-1
 1.045600000000000E9     3.497826896337164E-1    9.123520914499988E-1
 1.045800000000000E9     3.504957303926303E-1    9.119403723715753E-1
 1.046000000000000E9     3.511787714445696E-1    9.116186085106628E-1
 1.046200000000000E9     3.522154840504205E-1    9.113702061424034E-1
 1.046400000000000E9     3.529579316277249E-1    9.110218090593419E-1
 1.046600000000000E9     3.536827592444192E-1    9.105788800474968E-1
 1.046800000000000E9     3.542830743437132E-1    9.102652935257105E-1
 1.047000000000000E9     3.552111652645758E-1    9.098288992107989E-1
 1.047200000000000E9     3.559370451924150E-1    9.095175017868323E-1
 1.047400000000000E9     3.566351479551996E-1    9.092725847100328E-1
 1.047600000000000E9     3.574514939944817E-1    9.089768235215232E-1
 1.047800000000000E9     3.581704593365631E-1    9.086242010636202E-1
 1.048000000000000E9     3.588436491704221E-1    9.080601978252100E-1
 1.048200000000000E9     3.596797797750186E-1    9.078294533293498E-1
 1.048400000000000E9     3.603108820837648E-1    9.076372523722724E-1
 1.048600000000000E9     3.615379909370143E-1    9.070950050268376E-1
 1.048800000000000E9     3.620466762035950E-1    9.069264492825209E-1
 1.049000000000000E9     3.628317457426484E-1    9.062945617221128E-1
 1.049200000000000E9     3.635080070729015E-1    9.062339787056219E-1
 1.049400000000000E9     3.643247323767814E-1    9.056471553010258E-1
 1.049600000000000E9     3.650458108313176E-1    9.055790304425813E-1
 1.049800000000000E9     3.661760567904298E-1    9.050646086799170E-1
 1.050000000000000E9     3.665296510140722E-1    9.047894996731645E-1
 1.050200000000000E9     3.675335347393793E-1    9.043302914053053E-1
 1.050400000000000E9     3.682650012781256E-1    9.039739226002967E-1
 1.050600000000000E9     3.690970994903221E-1    9.036156788053373E-1
 1.050800000000000E9     3.697759511313632E-1    9.033263058236158E-1
 1.051000000000000E9     3.706680618397520E-1    9.029534204752746E-1
 1.051200000000000E9     3.713942560836538E-1    9.023022379160781E-1
 1.051400000000000E9     3.720862723447552E-1    9.022140258079917E-1
 1.051600000000000E9     3.730586502621792E-1    9.019199241973780E-1
 1.051800000000000E9     3.736551265102495E-1    9.015820017354477E-1
 1.052000000000000E9     3.746762736574629E-1    9.011895782325618E-1
 1.052200000000000E9     3.752617197737065E-1    9.006479059607424E-1
 1.052400000000000E9     3.760172199476962E-1    9.004067849091395E-1
 1.052600000000000E9     3.769716227447498E-1    9.000382962141157E-1
 1.052800000000000E9     3.777052808084087E-1    8.997252282532713E-1
 1.053000000000000E9     3.784975991858754E-1    8.990872744208562E-1
 1.053200000000000E9     3.792026196638422E-1    8.987140948447243E-1
 1.053400000000000E9     3.801512409213325E-1    8.985151943128384E-1
 1.053600000000000E9     3.812601654101875E-1    8.982380017271842E-1
 1.053800000000000E9     3.815835174951756E-1    8.979079551155607E-1
 1.054000000000000E9     3.824433874180825E-1    8.974780117587866E-1
 1.054200000000000E9     3.832972539182941E-1    8.970260826506320E-1
 1.054400000000000E9     3.839596832651335E-1    8.964126170407331E-1
 1.054600000000000E9     3.847142016893665E-1    8.959668930650694E-1
 1.054800000000000E9     3.856576744350437E-1    8.955927077572828E-1
 1.055000000000000E9     3.864826955991929E-1    8.952458959192983E-1
 1.055200000000000E9     3.871642576981306E-1    8.950155160314834E-1
 1.055400000000000E9     3.880924383469617E-1    8.945053034788754E-1
